  can0  18FFA227   [8]  01 90 00 00 00 00 00 00
  can0  06C73001   [8]  23 00 20 01 00 00 00 00
  can0  18FF911C   [8]  00 00 03 00 02 00 00 00
  can0  18FF921C   [8]  00 03 00 00 96 FA FA 00
  can0  18FF931C   [5]  64 64 64 64 81
  can0  18FFA127   [8]  03 00 00 4E 7F 00 91 00
  can0  06C73001   [8]  23 00 20 01 00 00 00 00
  can0  18FFA227   [8]  01 90 00 00 00 00 00 00
  can0  06C73001   [8]  23 00 20 01 00 00 00 00
  can0  18FF911C   [8]  00 00 03 00 02 00 00 00
  can0  18FF921C   [8]  00 03 00 00 96 FA FA 00
  can0  18FF931C   [5]  64 64 64 64 83
  can0  18FFA127   [8]  03 00 00 4E 7F 00 91 01
  can0  06C73001   [8]  23 00 20 01 00 00 00 00
  can0  18FFA227   [8]  01 90 00 00 00 00 00 00
  can0  06C73001   [8]  23 00 20 01 00 00 00 00
  can0  18FF911C   [8]  00 00 03 00 02 00 00 00
  can0  18FF921C   [8]  00 03 00 00 96 FA FA 00
  can0  18FF931C   [5]  64 64 64 64 85
  can0  18FFA127   [8]  03 00 00 4E 7F 00 91 00
  can0  06C73001   [8]  23 00 20 01 00 00 00 00
  can0  18FFA227   [8]  01 8F 00 00 00 00 00 00
  can0  06C73001   [8]  23 00 20 01 00 00 00 00
  can0  18FF911C   [8]  00 00 03 00 02 00 00 00
  can0  18FF921C   [8]  00 03 00 00 96 FA FA 00
  can0  18FF931C   [5]  64 64 64 64 87
  can0  18FFA127   [8]  03 00 00 4E 7F 00 91 01
  can0  06C73001   [8]  23 00 20 01 00 00 00 00
  can0  18FFA227   [8]  01 8F 00 00 00 00 00 00
  can0  06C73001   [8]  23 00 20 01 00 00 00 00
  can0  18FF911C   [8]  00 00 03 00 02 00 00 00
  can0  18FF921C   [8]  00 03 00 00 96 FA FA 00
  can0  18FF931C   [5]  64 64 64 64 89
  can0  18FFA127   [8]  03 00 00 4E 7F 00 91 00
  can0  06C73001   [8]  23 00 20 01 00 00 00 00
  can0  18FFA227   [8]  01 90 00 00 00 00 00 00
  can0  06C73001   [8]  23 00 20 01 00 00 00 00
  can0  18FF911C   [8]  00 00 03 00 02 00 00 00
  can0  18FF921C   [8]  00 03 00 00 96 FA FA 00
  can0  18FF931C   [5]  64 64 64 64 8B
  can0  18FFA127   [8]  03 00 00 4E 7F 00 91 01
  can0  06C73001   [8]  23 00 20 01 00 00 00 00
  can0  18FFA227   [8]  01 90 00 00 00 00 00 00
  can0  06C73001   [8]  23 00 20 01 00 00 00 00
  can0  18FF911C   [8]  00 00 03 00 02 00 00 00
  can0  18FF921C   [8]  00 03 00 00 96 FA FA 00
  can0  18FF931C   [5]  64 64 64 64 8C
  can0  18FFA127   [8]  03 00 00 4E 7F 00 91 00
  can0  06C73001   [8]  23 00 20 01 00 00 00 00
  can0  18FFA227   [8]  01 90 00 00 00 00 00 00
  can0  06C73001   [8]  23 00 20 01 00 00 00 00
  can0  18FF911C   [8]  00 00 03 00 02 00 00 00
  can0  18FF921C   [8]  00 03 00 00 96 FA FA 00
  can0  18FF931C   [5]  64 64 64 64 8A
  can0  18FFA127   [8]  03 00 00 4E 7F 00 91 01
  can0  06C73001   [8]  23 00 20 01 00 00 00 00
  can0  18FFA227   [8]  01 90 00 00 00 00 00 00
  can0  06C73001   [8]  23 00 20 01 00 00 00 00
  can0  18FF911C   [8]  00 00 03 00 02 00 00 00
  can0  18FF921C   [8]  00 03 00 00 96 FA FA 00
  can0  18FF931C   [5]  64 64 64 64 88
  can0  18FFA127   [8]  03 00 00 4E 7F 00 91 00
  can0  06C73001   [8]  23 00 20 01 00 00 00 00
  can0  18FFA227   [8]  01 90 00 00 00 00 00 00
  can0  06C73001   [8]  23 00 20 01 00 00 00 00
  can0  18FF911C   [8]  00 00 03 00 02 00 00 00
  can0  18FF921C   [8]  00 03 00 00 96 FA FA 00
  can0  18FF931C   [5]  64 64 64 64 86
  can0  18FFA127   [8]  03 00 00 4E 7F 00 91 01
  can0  06C73001   [8]  23 00 20 01 00 00 00 00
  can0  18FFA227   [8]  01 8F 00 00 00 00 00 00
  can0  06C73001   [8]  23 00 20 01 00 00 00 00
  can0  18FF911C   [8]  00 00 03 00 02 00 00 00
  can0  18FF921C   [8]  00 03 00 00 96 FA FA 00
  can0  18FF931C   [5]  64 64 64 64 84
  can0  18FFA127   [8]  03 00 00 4E 7F 00 91 00
  can0  06C73001   [8]  23 00 20 01 00 00 00 00
  can0  18FFA227   [8]  01 90 00 00 00 00 00 00
  can0  06C73001   [8]  23 00 20 01 00 00 00 00
  can0  18FF911C   [8]  00 00 03 00 02 00 00 00
  can0  18FF921C   [8]  00 03 00 00 96 FA FA 00
  can0  18FF931C   [5]  64 64 64 64 82
  can0  18FFA127   [8]  03 00 00 4E 7F 00 91 01
  can0  06C73001   [8]  23 00 20 01 00 00 00 00
  can0  18FFA227   [8]  01 90 00 00 00 00 00 00
  can0  06C73001   [8]  23 00 20 01 00 00 00 00
  can0  18FF911C   [8]  00 00 03 00 02 00 00 00
  can0  18FF921C   [8]  00 03 00 00 96 FA FA 00
  can0  18FF931C   [5]  64 64 64 64 80
  can0  18FFA127   [8]  03 00 00 4E 7F 00 91 00
  can0  06C73001   [8]  23 00 20 01 00 00 00 00
  can0  18FFA227   [8]  01 90 00 00 00 00 00 00
  can0  06C73001   [8]  23 00 20 01 00 00 00 00
  can0  18FF911C   [8]  00 00 03 00 02 00 00 00
  can0  18FF921C   [8]  00 03 00 00 96 FA FA 00
  can0  18FF931C   [5]  64 64 64 64 7E
  can0  18FFA127   [8]  03 00 00 4E 7F 00 91 01
  can0  06C73001   [8]  23 00 20 01 00 00 00 00
  can0  18FFA227   [8]  01 90 00 00 00 00 00 00
  can0  06C73001   [8]  23 00 20 01 00 00 00 00
  can0  18FF911C   [8]  00 00 03 00 02 00 00 00
  can0  18FF921C   [8]  00 03 00 00 96 FA FA 00
  can0  18FF931C   [5]  64 64 64 64 7C
  can0  18FFA127   [8]  03 00 00 4E 7F 00 91 00
  can0  06C73001   [8]  23 00 20 01 00 00 00 00
  can0  18FFA227   [8]  01 90 00 00 00 00 00 00
  can0  06C73001   [8]  23 00 20 01 00 00 00 00
  can0  18FF911C   [8]  00 00 03 00 02 00 00 00
  can0  18FF921C   [8]  00 03 00 00 96 FA FA 00
  can0  18FF931C   [5]  64 64 64 64 7A
  can0  18FFA127   [8]  03 00 00 4E 7F 00 91 01
  can0  06C73001   [8]  23 00 20 01 00 00 00 00
  can0  18FFA227   [8]  01 90 00 00 00 00 00 00
  can0  06C73001   [8]  23 00 20 01 00 00 00 00
  can0  18FF911C   [8]  00 00 03 00 02 00 00 00
  can0  18FF921C   [8]  00 03 00 00 96 FA FA 00
  can0  18FF931C   [5]  64 64 64 64 78
  can0  18FFA127   [8]  03 00 00 4E 7F 00 91 00
  can0  06C73001   [8]  23 00 20 01 00 00 00 00
  can0  18FFA227   [8]  01 90 00 00 00 00 00 00
  can0  06C73001   [8]  23 00 20 01 00 00 00 00
  can0  18FF911C   [8]  00 00 03 00 02 00 00 00
  can0  18FF921C   [8]  00 03 00 00 96 FA FA 00
  can0  18FF931C   [5]  64 64 64 64 76
  can0  18FFA127   [8]  03 00 00 4E 7F 00 91 01
  can0  06C73001   [8]  23 00 20 01 00 00 00 00
  can0  18FFA227   [8]  01 90 00 00 00 00 00 00
  can0  06C73001   [8]  23 00 20 01 00 00 00 00
  can0  18FF911C   [8]  00 00 03 00 02 00 00 00
  can0  18FF921C   [8]  00 03 00 00 96 FA FA 00
  can0  18FF931C   [5]  64 64 64 64 74
  can0  18FFA127   [8]  03 00 00 4E 7F 00 91 00
  can0  06C73001   [8]  23 00 20 01 00 00 00 00
  can0  18FFA227   [8]  01 90 00 00 00 00 00 00
  can0  06C73001   [8]  23 00 20 01 00 00 00 00
  can0  18FF911C   [8]  00 00 03 00 02 00 00 00
  can0  18FF921C   [8]  00 03 00 00 96 FA FA 00
  can0  18FF931C   [5]  64 64 64 64 72
  can0  18FFA127   [8]  03 00 00 4E 7F 00 91 01
  can0  06C73001   [8]  23 00 20 01 00 00 00 00
  can0  18FFA227   [8]  01 90 00 00 00 00 00 00
  can0  06C73001   [8]  23 00 20 01 00 00 00 00
  can0  18FF911C   [8]  00 00 03 00 02 00 00 00
  can0  18FF921C   [8]  00 03 00 00 96 FA FA 00
  can0  18FF931C   [5]  64 64 64 64 70
  can0  18FFA127   [8]  03 00 00 4E 7F 00 91 00
  can0  06C73001   [8]  23 00 20 01 00 00 00 00
  can0  18FFA227   [8]  01 8F 00 00 00 00 00 00
  can0  06C73001   [8]  23 00 20 01 00 00 00 00
  can0  18FF911C   [8]  00 00 03 00 02 00 00 00
  can0  18FF921C   [8]  00 03 00 00 96 FA FA 00
  can0  18FF931C   [5]  64 64 64 64 6E
  can0  18FFA127   [8]  03 00 00 4E 7F 00 91 01
  can0  06C73001   [8]  23 00 20 01 00 00 00 00
  can0  18FFA227   [8]  01 8F 00 00 00 00 00 00
  can0  06C73001   [8]  23 00 20 01 00 00 00 00
  can0  18FF911C   [8]  00 00 03 00 02 00 00 00
  can0  18FF921C   [8]  00 03 00 00 96 FA FA 00
  can0  18FF931C   [5]  64 64 64 64 6C
  can0  18FFA127   [8]  03 00 00 4E 7F 00 91 00
  can0  06C73001   [8]  23 00 20 01 00 00 00 00
  can0  18FFA227   [8]  01 90 00 00 00 00 00 00
  can0  06C73001   [8]  23 00 20 01 00 00 00 00
  can0  18FF911C   [8]  00 00 03 00 02 00 00 00
  can0  18FF921C   [8]  00 03 00 00 96 FA FA 00
  can0  18FF931C   [5]  64 64 64 64 6A
  can0  18FFA127   [8]  03 00 00 4E 7F 00 91 01
  can0  06C73001   [8]  23 00 20 01 00 00 00 00
  can0  18FFA227   [8]  01 90 00 00 00 00 00 00
  can0  06C73001   [8]  23 00 20 01 00 00 00 00
  can0  18FF911C   [8]  00 00 03 00 02 00 00 00
  can0  18FF921C   [8]  00 03 00 00 96 FA FA 00
  can0  18FF931C   [5]  64 64 64 64 68
  can0  18FFA127   [8]  03 00 00 4E 7F 00 91 00
  can0  06C73001   [8]  23 00 20 01 00 00 00 00
  can0  18FFA227   [8]  01 90 00 00 00 00 00 00
  can0  06C73001   [8]  23 00 20 01 00 00 00 00
  can0  18FF911C   [8]  00 00 03 00 02 00 00 00
  can0  18FF921C   [8]  00 03 00 00 96 FA FA 00
  can0  18FF931C   [5]  64 64 64 64 66
  can0  18FFA127   [8]  03 00 00 4E 7F 00 91 01
  can0  06C73001   [8]  23 00 20 01 00 00 00 00
  can0  18FFA227   [8]  01 90 00 00 00 00 00 00
  can0  06C73001   [8]  23 00 20 01 00 00 00 00
  can0  18FF911C   [8]  00 00 03 00 02 00 00 00
  can0  18FF921C   [8]  00 03 00 00 96 FA FA 00
  can0  18FF931C   [5]  64 64 64 64 64
  can0  18FFA127   [8]  03 00 00 4E 7F 00 91 00
  can0  06C73001   [8]  23 00 20 01 00 00 00 00
  can0  18FFA227   [8]  01 8F 00 00 00 00 00 00
  can0  06C73001   [8]  23 00 20 01 00 00 00 00
  can0  18FF911C   [8]  00 00 03 00 02 00 00 00
  can0  18FF921C   [8]  00 03 00 00 96 FA FA 00
  can0  18FF931C   [5]  64 64 64 64 62
  can0  18FFA127   [8]  03 00 00 4E 7F 00 91 01
  can0  06C73001   [8]  23 00 20 01 00 00 00 00
  can0  18FFA227   [8]  01 8F 00 00 00 00 00 00
  can0  06C73001   [8]  23 00 20 01 00 00 00 00
  can0  18FF911C   [8]  00 00 03 00 02 00 00 00
  can0  18FF921C   [8]  00 03 00 00 96 FA FA 00
  can0  18FF931C   [5]  64 64 64 64 60
  can0  18FFA127   [8]  03 00 00 4E 7F 00 91 00
  can0  06C73001   [8]  23 00 20 01 00 00 00 00
  can0  18FFA227   [8]  01 90 00 00 00 00 00 00
  can0  06C73001   [8]  23 00 20 01 00 00 00 00
  can0  18FF911C   [8]  00 00 03 00 02 00 00 00
  can0  18FF921C   [8]  00 03 00 00 96 FA FA 00
  can0  18FF931C   [5]  64 64 64 64 5E
  can0  18FFA127   [8]  03 00 00 4E 7F 00 91 01
  can0  06C73001   [8]  23 00 20 01 00 00 00 00
  can0  18FFA227   [8]  01 90 00 00 00 00 00 00
  can0  06C73001   [8]  23 00 20 01 00 00 00 00
  can0  18FF911C   [8]  00 00 03 00 02 00 00 00
  can0  18FF921C   [8]  00 03 00 00 96 FA FA 00
  can0  18FF931C   [5]  64 64 64 64 5C
  can0  18FFA127   [8]  03 00 00 4E 7F 00 91 00
  can0  06C73001   [8]  23 00 20 01 00 00 00 00
  can0  18FFA227   [8]  01 90 00 00 00 00 00 00
  can0  06C73001   [8]  23 00 20 01 00 00 00 00
  can0  18FF911C   [8]  00 00 03 00 02 00 00 00
  can0  18FF921C   [8]  00 03 00 00 96 FA FA 00
  can0  18FF931C   [5]  64 64 64 64 5A
  can0  18FFA127   [8]  03 00 00 4E 7F 00 91 01
  can0  06C73001   [8]  23 00 20 01 00 00 00 00
  can0  18FFA227   [8]  01 90 00 00 00 00 00 00
  can0  06C73001   [8]  23 00 20 01 00 00 00 00
  can0  18FF911C   [8]  00 00 03 00 02 00 00 00
  can0  18FF921C   [8]  00 03 00 00 96 FA FA 00
  can0  18FF931C   [5]  64 64 64 64 58
  can0  18FFA127   [8]  03 00 00 4E 7F 00 91 00
  can0  06C73001   [8]  23 00 20 01 00 00 00 00
  can0  18FFA227   [8]  01 90 00 00 00 00 00 00
  can0  06C73001   [8]  23 00 20 01 00 00 00 00
  can0  18FF911C   [8]  00 00 03 00 02 00 00 00
  can0  18FF921C   [8]  00 03 00 00 96 FA FA 00
  can0  18FF931C   [5]  64 64 64 64 56
  can0  18FFA127   [8]  03 00 00 4E 7F 00 91 01
  can0  06C73001   [8]  23 00 20 01 00 00 00 00
  can0  18FFA227   [8]  01 90 00 00 00 00 00 00
  can0  06C73001   [8]  23 00 20 01 00 00 00 00
  can0  18FF911C   [8]  00 00 03 00 02 00 00 00
  can0  18FF921C   [8]  00 03 00 00 96 FA FA 00
  can0  18FF931C   [5]  64 64 64 64 54
  can0  18FFA127   [8]  03 00 00 4E 7F 00 91 00
  can0  06C73001   [8]  23 00 20 01 00 00 00 00
  can0  18FFA227   [8]  01 91 00 00 00 00 00 00
  can0  06C73001   [8]  23 00 20 01 00 00 00 00
  can0  18FF911C   [8]  00 00 03 00 02 00 00 00
  can0  18FF921C   [8]  00 03 00 00 96 FA FA 00
  can0  18FF931C   [5]  64 64 64 64 52
  can0  18FFA127   [8]  03 00 00 4E 7F 00 91 01
  can0  06C73001   [8]  23 00 20 01 00 00 00 00
  can0  18FFA227   [8]  01 91 00 00 00 00 00 00
  can0  06C73001   [8]  23 00 20 01 00 00 00 00
  can0  18FF911C   [8]  00 00 03 00 02 00 00 00
  can0  18FF921C   [8]  00 03 00 00 96 FA FA 00
  can0  18FF931C   [5]  64 64 64 64 50
  can0  18FFA127   [8]  03 00 00 4E 7F 00 91 00
  can0  06C73001   [8]  23 00 20 01 00 00 00 00
  can0  18FFA227   [8]  01 91 00 00 00 00 00 00
  can0  06C73001   [8]  23 00 20 01 00 00 00 00
  can0  18FF911C   [8]  00 00 03 00 02 00 00 00
  can0  18FF921C   [8]  00 03 00 00 96 FA FA 00
  can0  18FF931C   [5]  64 64 64 64 4F
  can0  18FFA127   [8]  03 00 00 4E 7F 00 91 01
  can0  06C73001   [8]  23 00 20 01 00 00 00 00
  can0  18FFA227   [8]  01 90 00 00 00 00 00 00
  can0  06C73001   [8]  23 00 20 01 00 00 00 00
  can0  18FF911C   [8]  00 00 03 00 02 00 00 00
  can0  18FF921C   [8]  00 03 00 00 96 FA FA 00
  can0  18FF931C   [5]  64 64 64 64 4D
  can0  18FFA127   [8]  03 00 00 4E 7F 00 91 00
  can0  06C73001   [8]  23 00 20 01 00 00 00 00
  can0  18FFA227   [8]  01 90 00 00 00 00 00 00
  can0  06C73001   [8]  23 00 20 01 00 00 00 00
  can0  18FF911C   [8]  00 00 03 00 02 00 00 00
  can0  18FF921C   [8]  00 03 00 00 96 FA FA 00
  can0  18FF931C   [5]  64 64 64 64 4B
  can0  18FFA127   [8]  03 00 00 4E 7F 00 91 01
  can0  06C73001   [8]  23 00 20 01 00 00 00 00
  can0  18FFA227   [8]  01 90 00 00 00 00 00 00
  can0  06C73001   [8]  23 00 20 01 00 00 00 00
  can0  18FF911C   [8]  00 00 03 00 02 00 00 00
  can0  18FF921C   [8]  00 03 00 00 96 FA FA 00
  can0  18FF931C   [5]  64 64 64 64 49
  can0  18FFA127   [8]  03 00 00 4E 7F 00 91 00
  can0  06C73001   [8]  23 00 20 01 00 00 00 00
  can0  18FFA227   [8]  01 90 00 00 00 00 00 00
  can0  06C73001   [8]  23 00 20 01 00 00 00 00
  can0  18FF911C   [8]  00 00 03 00 02 00 00 00
  can0  18FF921C   [8]  00 03 00 00 96 FA FA 00
  can0  18FF931C   [5]  64 64 64 64 47
  can0  18FFA127   [8]  03 00 00 4E 7F 00 91 01
  can0  06C73001   [8]  23 00 20 01 00 00 00 00
  can0  18FFA227   [8]  01 90 00 00 00 00 00 00
  can0  06C73001   [8]  23 00 20 01 00 00 00 00
  can0  18FF911C   [8]  00 00 03 00 02 00 00 00
  can0  18FF921C   [8]  00 03 00 00 96 FA FA 00
  can0  18FF931C   [5]  64 64 64 64 45
  can0  18FFA127   [8]  03 00 00 4E 7F 00 91 00
  can0  06C73001   [8]  23 00 20 01 00 00 00 00
  can0  18FFA227   [8]  01 90 00 00 00 00 00 00
  can0  06C73001   [8]  23 00 20 01 00 00 00 00
  can0  18FF911C   [8]  00 00 03 00 02 00 00 00
  can0  18FF921C   [8]  00 03 00 00 96 FA FA 00
  can0  18FF931C   [5]  64 64 64 64 43
  can0  18FFA127   [8]  03 00 00 4E 7F 00 91 01
  can0  06C73001   [8]  23 00 20 01 00 00 00 00
  can0  18FFA227   [8]  01 90 00 00 00 00 00 00
  can0  06C73001   [8]  23 00 20 01 00 00 00 00
  can0  18FF911C   [8]  00 00 03 00 02 00 00 00
  can0  18FF921C   [8]  00 03 00 00 96 FA FA 00
  can0  18FF931C   [5]  64 64 64 64 41
  can0  18FFA127   [8]  03 00 00 4E 7F 00 91 00
  can0  06C73001   [8]  23 00 20 01 00 00 00 00
  can0  18FFA227   [8]  01 90 00 00 00 00 00 00
  can0  06C73001   [8]  23 00 20 01 00 00 00 00
  can0  18FF911C   [8]  00 00 03 00 02 00 00 00
  can0  18FF921C   [8]  00 03 00 00 96 FA FA 00
  can0  18FF931C   [5]  64 64 64 64 3F
  can0  18FFA127   [8]  03 00 00 4E 7F 00 91 01
  can0  06C73001   [8]  23 00 20 01 00 00 00 00
  can0  18FFA227   [8]  01 90 00 00 00 00 00 00
  can0  06C73001   [8]  23 00 20 01 00 00 00 00
  can0  18FF911C   [8]  00 00 03 00 02 00 00 00
  can0  18FF921C   [8]  00 03 00 00 96 FA FA 00
  can0  18FF931C   [5]  64 64 64 64 3D
  can0  18FFA127   [8]  03 00 00 4E 7F 00 91 00
  can0  06C73001   [8]  23 00 20 01 00 00 00 00
  can0  18FFA227   [8]  01 91 00 00 00 00 00 00
  can0  06C73001   [8]  23 00 20 01 00 00 00 00
  can0  18FF911C   [8]  00 00 03 00 02 00 00 00
  can0  18FF921C   [8]  00 03 00 00 96 FA FA 00
  can0  18FF931C   [5]  64 64 64 64 3C
  can0  18FFA127   [8]  03 00 00 4E 7F 00 91 01
  can0  06C73001   [8]  23 00 20 01 00 00 00 00
  can0  18FFA227   [8]  01 91 00 00 00 00 00 00
  can0  06C73001   [8]  23 00 20 01 00 00 00 00
  can0  18FF911C   [8]  00 00 03 00 02 00 00 00
  can0  18FF921C   [8]  00 03 00 00 96 FA FA 00
  can0  18FF931C   [5]  64 64 64 64 3E
  can0  18FFA127   [8]  03 00 00 4E 7F 00 91 00
  can0  06C73001   [8]  23 00 20 01 00 00 00 00
  can0  18FFA227   [8]  01 91 00 00 00 00 00 00
  can0  06C73001   [8]  23 00 20 01 00 00 00 00
  can0  18FF911C   [8]  00 00 03 00 02 00 00 00
  can0  18FF921C   [8]  00 03 00 00 96 FA FA 00
  can0  18FF931C   [5]  64 64 64 64 40
  can0  18FFA127   [8]  03 00 00 4E 7F 00 91 01
  can0  06C73001   [8]  23 00 20 01 00 00 00 00
  can0  18FFA227   [8]  01 91 00 00 00 00 00 00
  can0  06C73001   [8]  23 00 20 01 00 00 00 00
  can0  18FF911C   [8]  00 00 03 00 02 00 00 00
  can0  18FF921C   [8]  00 03 00 00 96 FA FA 00
  can0  18FF931C   [5]  64 64 64 64 42
  can0  18FFA127   [8]  03 00 00 4E 7F 00 91 00
  can0  06C73001   [8]  23 00 20 01 00 00 00 00
  can0  18FFA227   [8]  01 91 00 00 00 00 00 00
  can0  06C73001   [8]  23 00 20 01 00 00 00 00
  can0  18FF911C   [8]  00 00 03 00 02 00 00 00
  can0  18FF921C   [8]  00 03 00 00 96 FA FA 00
  can0  18FF931C   [5]  64 64 64 64 44
  can0  18FFA127   [8]  03 00 00 4E 7F 00 91 01
  can0  06C73001   [8]  23 00 20 01 00 00 00 00
  can0  18FFA227   [8]  01 91 00 00 00 00 00 00
  can0  06C73001   [8]  23 00 20 01 00 00 00 00
  can0  18FF911C   [8]  00 00 03 00 02 00 00 00
  can0  18FF921C   [8]  00 03 00 00 96 FA FA 00
  can0  18FF931C   [5]  64 64 64 64 46
  can0  18FFA127   [8]  03 00 00 4E 7F 00 91 00
  can0  06C73001   [8]  23 00 20 01 00 00 00 00
  can0  18FFA227   [8]  01 91 00 00 00 00 00 00
  can0  06C73001   [8]  23 00 20 01 00 00 00 00
  can0  18FF911C   [8]  00 00 03 00 02 00 00 00
  can0  18FF921C   [8]  00 03 00 00 96 FA FA 00
  can0  18FF931C   [5]  64 64 64 64 48
  can0  18FFA127   [8]  03 00 00 4E 7F 00 91 01
  can0  06C73001   [8]  23 00 20 01 00 00 00 00
  can0  18FFA227   [8]  01 91 00 00 00 00 00 00
  can0  06C73001   [8]  23 00 20 01 00 00 00 00
  can0  18FF911C   [8]  00 00 03 00 02 00 00 00
  can0  18FF921C   [8]  00 03 00 00 96 FA FA 00
  can0  18FF931C   [5]  64 64 64 64 4A
  can0  18FFA127   [8]  03 00 00 4E 7F 00 91 00
  can0  06C73001   [8]  23 00 20 01 00 00 00 00
  can0  18FFA227   [8]  01 90 00 00 00 00 00 00
  can0  06C73001   [8]  23 00 20 01 00 00 00 00
  can0  18FF911C   [8]  00 00 03 00 02 00 00 00
  can0  18FF921C   [8]  00 03 00 00 96 FA FA 00
  can0  18FF931C   [5]  64 64 64 64 4C
  can0  18FFA127   [8]  03 00 00 4E 7F 00 91 01
  can0  06C73001   [8]  23 00 20 01 00 00 00 00
  can0  18FFA227   [8]  01 90 00 00 00 00 00 00
  can0  06C73001   [8]  23 00 20 01 00 00 00 00
  can0  18FF911C   [8]  00 00 03 00 02 00 00 00
  can0  18FF921C   [8]  00 03 00 00 96 FA FA 00
  can0  18FF931C   [5]  64 64 64 64 4E
  can0  18FFA127   [8]  03 00 00 4E 7F 00 91 00
  can0  06C73001   [8]  23 00 20 01 00 00 00 00
  can0  18FFA227   [8]  01 8F 00 00 00 00 00 00
  can0  06C73001   [8]  23 00 20 01 00 00 00 00
  can0  18FF911C   [8]  00 00 03 00 02 00 00 00
  can0  18FF921C   [8]  00 03 00 00 96 FA FA 00
  can0  18FF931C   [5]  64 64 64 64 50
  can0  18FFA127   [8]  03 00 00 4E 7F 00 91 01
  can0  06C73001   [8]  23 00 20 01 00 00 00 00
  can0  18FFA227   [8]  01 8F 00 00 00 00 00 00
  can0  06C73001   [8]  23 00 20 01 00 00 00 00
  can0  18FF911C   [8]  00 00 03 00 02 00 00 00
  can0  18FF921C   [8]  00 03 00 00 96 FA FA 00
  can0  18FF931C   [5]  64 64 64 64 52
  can0  18FFA127   [8]  03 00 00 4E 7F 00 91 00
  can0  06C73001   [8]  23 00 20 01 00 00 00 00
  can0  18FFA227   [8]  01 8F 00 00 00 00 00 00
  can0  06C73001   [8]  23 00 20 01 00 00 00 00
  can0  18FF911C   [8]  00 00 03 00 02 00 00 00
  can0  18FF921C   [8]  00 03 00 00 96 FA FA 00
  can0  18FF931C   [5]  64 64 64 64 54
  can0  18FFA127   [8]  03 00 00 4E 7F 00 91 01
  can0  06C73001   [8]  23 00 20 01 00 00 00 00
  can0  18FFA227   [8]  01 8F 00 00 00 00 00 00
  can0  06C73001   [8]  23 00 20 01 00 00 00 00
  can0  18FF911C   [8]  00 00 03 00 02 00 00 00
  can0  18FF921C   [8]  00 03 00 00 96 FA FA 00
  can0  18FF931C   [5]  64 64 64 64 56
  can0  18FFA127   [8]  03 00 00 4E 7F 00 91 00
  can0  06C73001   [8]  23 00 20 01 00 00 00 00
  can0  18FFA227   [8]  01 8F 00 00 00 00 00 00
  can0  06C73001   [8]  23 00 20 01 00 00 00 00
  can0  18FF911C   [8]  00 00 03 00 02 00 00 00
  can0  18FF921C   [8]  00 03 00 00 96 FA FA 00
  can0  18FF931C   [5]  64 64 64 64 58
  can0  18FFA127   [8]  03 00 00 4E 7F 00 91 01
  can0  06C73001   [8]  23 00 20 01 00 00 00 00
  can0  18FFA227   [8]  01 8F 00 00 00 00 00 00
  can0  06C73001   [8]  23 00 20 01 00 00 00 00
  can0  18FF911C   [8]  00 00 03 00 02 00 00 00
  can0  18FF921C   [8]  00 03 00 00 96 FA FA 00
  can0  18FF931C   [5]  64 64 64 64 5A
  can0  18FFA127   [8]  03 00 00 4E 7F 00 91 00
  can0  06C73001   [8]  23 00 20 01 00 00 00 00
  can0  18FFA227   [8]  01 90 00 00 00 00 00 00
  can0  06C73001   [8]  23 00 20 01 00 00 00 00
  can0  18FF911C   [8]  00 00 03 00 02 00 00 00
  can0  18FF921C   [8]  00 03 00 00 96 FA FA 00
  can0  18FF931C   [5]  64 64 64 64 5C
  can0  18FFA127   [8]  03 00 00 4E 7F 00 91 01
  can0  06C73001   [8]  23 00 20 01 00 00 00 00
  can0  18FFA227   [8]  01 90 00 00 00 00 00 00
  can0  06C73001   [8]  23 00 20 01 00 00 00 00
  can0  18FF911C   [8]  00 00 03 00 02 00 00 00
  can0  18FF921C   [8]  00 03 00 00 96 FA FA 00
  can0  18FF931C   [5]  64 64 64 64 5E
  can0  18FFA127   [8]  03 00 00 4E 7F 00 91 00
  can0  06C73001   [8]  23 00 20 01 00 00 00 00
  can0  18FFA227   [8]  01 91 00 00 00 00 00 00
  can0  06C73001   [8]  23 00 20 01 00 00 00 00
  can0  18FF911C   [8]  00 00 03 00 02 00 00 00
  can0  18FF921C   [8]  00 03 00 00 96 FA FA 00
  can0  18FF931C   [5]  64 64 64 64 60
  can0  18FFA127   [8]  03 00 00 4E 7F 00 91 01
  can0  06C73001   [8]  23 00 20 01 00 00 00 00
  can0  18FFA227   [8]  01 91 00 00 00 00 00 00
  can0  06C73001   [8]  23 00 20 01 00 00 00 00
  can0  18FF911C   [8]  00 00 03 00 02 00 00 00
  can0  18FF921C   [8]  00 03 00 00 96 FA FA 00
  can0  18FF931C   [5]  64 64 64 64 62
  can0  18FFA127   [8]  03 00 00 4E 7F 00 91 00
  can0  06C73001   [8]  23 00 20 01 00 00 00 00
  can0  18FFA227   [8]  01 91 00 00 00 00 00 00
  can0  06C73001   [8]  23 00 20 01 00 00 00 00
  can0  18FF911C   [8]  00 00 03 00 02 00 00 00
  can0  18FF921C   [8]  00 03 00 00 96 FA FA 00
  can0  18FF931C   [5]  64 64 64 64 64
  can0  18FFA127   [8]  03 00 00 4E 7F 00 91 01
  can0  06C73001   [8]  23 00 20 01 00 00 00 00
  can0  18FFA227   [8]  01 91 00 00 00 00 00 00
  can0  06C73001   [8]  23 00 20 01 00 00 00 00
  can0  18FF911C   [8]  00 00 03 00 02 00 00 00
  can0  18FF921C   [8]  00 03 00 00 96 FA FA 00
  can0  18FF931C   [5]  64 64 64 64 66
  can0  18FFA127   [8]  03 00 00 4E 7F 00 91 00
  can0  06C73001   [8]  23 00 20 01 00 00 00 00
  can0  18FFA227   [8]  01 91 00 00 00 00 00 00
  can0  06C73001   [8]  23 00 20 01 00 00 00 00
  can0  18FF911C   [8]  00 00 03 00 02 00 00 00
  can0  18FF921C   [8]  00 03 00 00 96 FA FA 00
  can0  18FF931C   [5]  64 64 64 64 68
  can0  18FFA127   [8]  03 00 00 4E 7F 00 91 01
  can0  06C73001   [8]  23 00 20 01 00 00 00 00
  can0  18FFA227   [8]  01 90 00 00 00 00 00 00
  can0  06C73001   [8]  23 00 20 01 00 00 00 00
  can0  18FF911C   [8]  00 00 03 00 02 00 00 00
  can0  18FF921C   [8]  00 03 00 00 96 FA FA 00
  can0  18FF931C   [5]  64 64 64 64 6A
  can0  18FFA127   [8]  03 00 00 4E 7F 00 91 00
  can0  06C73001   [8]  23 00 20 01 00 00 00 00
  can0  18FFA227   [8]  01 90 00 00 00 00 00 00
  can0  06C73001   [8]  23 00 20 01 00 00 00 00
  can0  18FF911C   [8]  00 00 03 00 02 00 00 00
  can0  18FF921C   [8]  00 03 00 00 96 FA FA 00
  can0  18FF931C   [5]  64 64 64 64 6C
  can0  18FFA127   [8]  03 00 00 4E 7F 00 91 01
  can0  06C73001   [8]  23 00 20 01 00 00 00 00
  can0  18FFA227   [8]  01 90 00 00 00 00 00 00
  can0  06C73001   [8]  23 00 20 01 00 00 00 00
  can0  18FF911C   [8]  00 00 03 00 02 00 00 00
  can0  18FF921C   [8]  00 03 00 00 96 FA FA 00
  can0  18FF931C   [5]  64 64 64 64 6E
  can0  18FFA127   [8]  03 00 00 4E 7F 00 91 00
  can0  06C73001   [8]  23 00 20 01 00 00 00 00
  can0  18FFA227   [8]  01 8F 00 00 00 00 00 00
  can0  06C73001   [8]  23 00 20 01 00 00 00 00
  can0  18FF911C   [8]  00 00 03 00 02 00 00 00
  can0  18FF921C   [8]  00 03 00 00 96 FA FA 00
  can0  18FF931C   [5]  64 64 64 64 70
  can0  18FFA127   [8]  03 00 00 4E 7F 00 91 01
  can0  06C73001   [8]  23 00 20 01 00 00 00 00
  can0  18FFA227   [8]  01 8F 00 00 00 00 00 00
  can0  06C73001   [8]  23 00 20 01 00 00 00 00
  can0  18FF911C   [8]  00 00 03 00 02 00 00 00
  can0  18FF921C   [8]  00 03 00 00 96 FA FA 00
  can0  18FF931C   [5]  64 64 64 64 72
  can0  18FFA127   [8]  03 00 00 4E 7F 00 91 00
  can0  06C73001   [8]  23 00 20 01 00 00 00 00
  can0  18FFA227   [8]  01 8F 00 00 00 00 00 00
  can0  06C73001   [8]  23 00 20 01 00 00 00 00
  can0  18FF911C   [8]  00 00 03 00 02 00 00 00
  can0  18FF921C   [8]  00 03 00 00 96 FA FA 00
  can0  18FF931C   [5]  64 64 64 64 74
  can0  18FFA127   [8]  03 00 00 4E 7F 00 91 01
  can0  06C73001   [8]  23 00 20 01 00 00 00 00
  can0  18FFA227   [8]  01 8F 00 00 00 00 00 00
  can0  06C73001   [8]  23 00 20 01 00 00 00 00
  can0  18FF911C   [8]  00 00 03 00 02 00 00 00
